T31A8 2247:120.952   SEGGER J-Link V6.70c Log File
T31A8 2247:121.036   DLL Compiled: Apr  7 2020 16:25:12
T31A8 2247:121.052   Logging started @ 2021-07-23 12:29
T31A8 2247:121.073 JLINK_SetWarnOutHandler(...)
T31A8 2247:121.087 - 0.021ms
T31A8 2247:121.105 JLINK_OpenEx(...)
T31A8 2247:124.162   Firmware: J-Link V9 compiled Feb  2 2021 16:34:10
T31A8 2247:124.416   Decompressing FW timestamp took 206 us
T31A8 2247:133.085   Hardware: V9.60
T31A8 2247:133.118   S/N: 63628769
T31A8 2247:133.139   OEM: SEGGER
T31A8 2247:133.160   Feature(s): GDB, RDI, FlashBP, FlashDL, JFlash, RDDI
T31A8 2247:135.104   TELNET listener socket opened on port 19021
T31A8 2247:139.742   WEBSRV Starting webserver
T31A8 2247:141.161   WEBSRV Webserver running on local port 19080
T31A8 2247:141.191 - 20.092ms returns "O.K."
T31A8 2247:141.218 JLINK_GetEmuCaps()
T31A8 2247:141.234 - 0.023ms returns 0xB9FF7BBF
T31A8 2247:141.258 JLINK_TIF_GetAvailable(...)
T31A8 2247:141.632 - 0.389ms
T31A8 2247:141.667 JLINK_SetErrorOutHandler(...)
T31A8 2247:141.682 - 0.022ms
T31A8 2247:141.707 JLINK_ExecCommand("ProjectFile = "E:\STM32\F407VET6\MDK-ARM\JLinkSettings.ini"", ...). 
T31A8 2247:143.828 - 2.136ms returns 0x00
T31A8 2247:143.881 JLINK_ExecCommand("Device = STM32F407VETx", ...). 
T31A8 2247:144.406   Device "STM32F407VE" selected.
T31A8 2247:145.064 - 1.174ms returns 0x00
T31A8 2247:145.093 JLINK_ExecCommand("DisableConnectionTimeout", ...). 
T31A8 2247:145.115 - 0.011ms returns 0x01
T31A8 2247:145.138 JLINK_GetHardwareVersion()
T31A8 2247:145.153 - 0.021ms returns 0x17700
T31A8 2247:145.173 JLINK_GetDLLVersion()  returns 67003
T31A8 2247:145.195 JLINK_GetFirmwareString(...)
T31A8 2247:145.209 - 0.021ms
T31A8 2247:145.247 JLINK_GetDLLVersion()  returns 67003
T31A8 2247:145.266 JLINK_GetCompileDateTime()
T31A8 2247:145.279 - 0.020ms
T31A8 2247:145.304 JLINK_GetFirmwareString(...)
T31A8 2247:145.319 - 0.021ms
T31A8 2247:145.768 JLINK_GetHardwareVersion()
T31A8 2247:145.795 - 0.034ms returns 0x17700
T31A8 2247:145.854 JLINK_TIF_Select(JLINKARM_TIF_SWD)
T31A8 2247:147.240 - 1.403ms returns 0x00
T31A8 2247:147.280 JLINK_SetSpeed(20000)
T31A8 2247:147.515 - 0.251ms
T31A8 2247:147.548 JLINK_GetId()
T31A8 2247:148.929   Found SW-DP with ID 0x2BA01477
T31A8 2247:163.764   Found SW-DP with ID 0x2BA01477
T31A8 2247:167.107   DPIDR: 0x2BA01477
T31A8 2247:167.157   Scanning AP map to find all available APs
T31A8 2247:167.869   AP[1]: Stopped AP scan as end of AP map has been reached
T31A8 2247:167.904   AP[0]: AHB-AP (IDR: 0x24770011)
T31A8 2247:167.931   Iterating through AP map to find AHB-AP to use
T31A8 2247:169.243   AP[0]: Core found
T31A8 2247:169.282   AP[0]: AHB-AP ROM base: 0xE00FF000
T31A8 2247:169.888   CPUID register: 0x410FC241. Implementer code: 0x41 (ARM)
T31A8 2247:169.926   Found Cortex-M4 r0p1, Little endian.
T31A8 2247:271.129    -- Max. mem block: 0x00010A80
T31A8 2247:271.178    -- CPU_ReadMem(4 bytes @ 0xE000EDF0)
T31A8 2247:272.027    -- CPU_WriteMem(4 bytes @ 0xE000EDF0)
T31A8 2247:272.601    -- CPU_ReadMem(4 bytes @ 0xE0002000)
T31A8 2247:273.152   FPUnit: 6 code (BP) slots and 2 literal slots
T31A8 2247:273.184    -- CPU_ReadMem(4 bytes @ 0xE000EDFC)
T31A8 2247:273.644    -- CPU_WriteMem(4 bytes @ 0xE000EDFC)
T31A8 2247:274.131    -- CPU_ReadMem(4 bytes @ 0xE0001000)
T31A8 2247:274.560    -- CPU_WriteMem(4 bytes @ 0xE0001000)
T31A8 2247:274.959    -- CPU_ReadMem(4 bytes @ 0xE000ED88)
T31A8 2247:275.330    -- CPU_WriteMem(4 bytes @ 0xE000ED88)
T31A8 2247:275.709    -- CPU_ReadMem(4 bytes @ 0xE000ED88)
T31A8 2247:276.117    -- CPU_WriteMem(4 bytes @ 0xE000ED88)
T31A8 2247:276.580   CoreSight components:
T31A8 2247:276.618   ROMTbl[0] @ E00FF000
T31A8 2247:276.641    -- CPU_ReadMem(64 bytes @ 0xE00FF000)
T31A8 2247:277.397    -- CPU_ReadMem(32 bytes @ 0xE000EFE0)
T31A8 2247:278.014   ROMTbl[0][0]: E000E000, CID: B105E00D, PID: 000BB00C SCS-M7
T31A8 2247:278.046    -- CPU_ReadMem(32 bytes @ 0xE0001FE0)
T31A8 2247:278.674   ROMTbl[0][1]: E0001000, CID: B105E00D, PID: 003BB002 DWT
T31A8 2247:278.773    -- CPU_ReadMem(32 bytes @ 0xE0002FE0)
T31A8 2247:279.360   ROMTbl[0][2]: E0002000, CID: B105E00D, PID: 002BB003 FPB
T31A8 2247:279.402    -- CPU_ReadMem(32 bytes @ 0xE0000FE0)
T31A8 2247:280.065   ROMTbl[0][3]: E0000000, CID: B105E00D, PID: 003BB001 ITM
T31A8 2247:280.097    -- CPU_ReadMem(32 bytes @ 0xE0040FE0)
T31A8 2247:280.736   ROMTbl[0][4]: E0040000, CID: B105900D, PID: 000BB9A1 TPIU
T31A8 2247:280.769    -- CPU_ReadMem(32 bytes @ 0xE0041FE0)
T31A8 2247:281.366   ROMTbl[0][5]: E0041000, CID: B105900D, PID: 000BB925 ETM
T31A8 2247:281.709 - 134.177ms   returns 0x2BA01477
T31A8 2247:281.744 JLINK_GetDLLVersion()  returns 67003
T31A8 2247:281.768 JLINK_CORE_GetFound()
T31A8 2247:281.783 - 0.022ms returns 0xE0000FF
T31A8 2247:281.803 JLINK_GetDebugInfo(0x100 = JLINKARM_ROM_TABLE_ADDR_INDEX)
T31A8 2247:281.819   Value=0xE00FF000
T31A8 2247:281.839 - 0.043ms returns 0x00
T31A8 2247:281.872 JLINK_GetDebugInfo(0x100 = JLINKARM_ROM_TABLE_ADDR_INDEX)
T31A8 2247:281.888   Value=0xE00FF000
T31A8 2247:281.908 - 0.043ms returns 0x00
T31A8 2247:281.926 JLINK_GetDebugInfo(0x101 = JLINKARM_DEBUG_INFO_ETM_ADDR_INDEX)
T31A8 2247:281.941   Value=0xE0041000
T31A8 2247:281.961 - 0.041ms returns 0x00
T31A8 2247:281.983   JLINK_ReadMemEx(0xE0041FD0, 0x0020 Bytes, ..., Flags = 0x02000004)
T31A8 2247:282.011    -- CPU_ReadMem(32 bytes @ 0xE0041FD0)
T31A8 2247:282.519   Data:  04 00 00 00 00 00 00 00 00 00 00 00 00 00 00 00 ...
T31A8 2247:282.550 - 0.575ms returns 0x20
T31A8 2247:282.572 JLINK_GetDebugInfo(0x102 = JLINKARM_DEBUG_INFO_MTB_ADDR_INDEX)
T31A8 2247:282.588   Value=0x00000000
T31A8 2247:282.608 - 0.043ms returns 0x00
T31A8 2247:282.626 JLINK_GetDebugInfo(0x103 = JLINKARM_DEBUG_INFO_TPIU_ADDR_INDEX)
T31A8 2247:282.641   Value=0xE0040000
T31A8 2247:282.661 - 0.042ms returns 0x00
T31A8 2247:282.680 JLINK_GetDebugInfo(0x104 = JLINKARM_DEBUG_INFO_ITM_ADDR_INDEX)
T31A8 2247:282.694   Value=0xE0000000
T31A8 2247:282.714 - 0.041ms returns 0x00
T31A8 2247:282.733 JLINK_GetDebugInfo(0x105 = JLINKARM_DEBUG_INFO_DWT_ADDR_INDEX)
T31A8 2247:282.747   Value=0xE0001000
T31A8 2247:282.766 - 0.040ms returns 0x00
T31A8 2247:282.784 JLINK_GetDebugInfo(0x106 = JLINKARM_DEBUG_INFO_FPB_ADDR_INDEX)
T31A8 2247:282.799   Value=0xE0002000
T31A8 2247:282.819 - 0.041ms returns 0x00
T31A8 2247:282.835 JLINK_GetDebugInfo(0x107 = JLINKARM_DEBUG_INFO_NVIC_ADDR_INDEX)
T31A8 2247:282.849   Value=0xE000E000
T31A8 2247:282.869 - 0.041ms returns 0x00
T31A8 2247:282.887 JLINK_GetDebugInfo(0x10C = JLINKARM_DEBUG_INFO_DBG_ADDR_INDEX)
T31A8 2247:282.901   Value=0xE000EDF0
T31A8 2247:282.921 - 0.041ms returns 0x00
T31A8 2247:282.939 JLINK_GetDebugInfo(0x01 = Unknown)
T31A8 2247:282.954   Value=0x00000001
T31A8 2247:282.974 - 0.041ms returns 0x00
T31A8 2247:282.996 JLINK_ReadMemU32(0xE000ED00, 0x0001 Items, ...)
T31A8 2247:283.015    -- CPU_ReadMem(4 bytes @ 0xE000ED00)
T31A8 2247:283.397   Data:  41 C2 0F 41
T31A8 2247:283.428    - CPUID
T31A8 2247:283.449 - 0.460ms returns 1
T31A8 2247:283.471 JLINK_GetDebugInfo(0x10F = JLINKARM_DEBUG_INFO_HAS_CORTEX_M_SECURITY_EXT_INDEX)
T31A8 2247:283.487   Value=0x00000000
T31A8 2247:283.507 - 0.043ms returns 0x00
T31A8 2247:283.531 JLINK_SetResetType(JLINKARM_CM3_RESET_TYPE_NORMAL)
T31A8 2247:283.546 - 0.022ms returns JLINKARM_CM3_RESET_TYPE_NORMAL
T31A8 2247:283.645 JLINK_Reset()
T31A8 2247:283.677   CPU is running
T31A8 2247:283.701    -- CPU_WriteMem(4 bytes @ 0xE000EDF0)
T31A8 2247:284.071   CPU is running
T31A8 2247:284.103    -- CPU_WriteMem(4 bytes @ 0xE000EDFC)
T31A8 2247:284.578   Reset: Halt core after reset via DEMCR.VC_CORERESET.
T31A8 2247:285.204   Reset: Reset device via AIRCR.SYSRESETREQ.
T31A8 2247:285.237   CPU is running
T31A8 2247:285.259    -- CPU_WriteMem(4 bytes @ 0xE000ED0C)
T31A8 2247:338.232    -- CPU_ReadMem(4 bytes @ 0xE000EDF0)
T31A8 2247:338.915    -- CPU_ReadMem(4 bytes @ 0xE000EDF0)
T31A8 2247:339.564   CPU is running
T31A8 2247:339.599    -- CPU_WriteMem(4 bytes @ 0xE000EDF0)
T31A8 2247:340.149   CPU is running
T31A8 2247:340.196    -- CPU_WriteMem(4 bytes @ 0xE000EDFC)
T31A8 2247:345.895    -- CPU_ReadMem(4 bytes @ 0xE000EDF0)
T31A8 2247:349.434    -- CPU_WriteMem(4 bytes @ 0xE0002000)
T31A8 2247:350.066    -- CPU_ReadMem(4 bytes @ 0xE000EDFC)
T31A8 2247:350.706    -- CPU_ReadMem(4 bytes @ 0xE0001000)
T31A8 2247:351.394 - 67.779ms
T31A8 2247:351.470 JLINK_ReadReg(R15 (PC))
T31A8 2247:351.490 - 0.028ms returns 0x0800025C
T31A8 2247:351.509 JLINK_ReadReg(XPSR)
T31A8 2247:351.524 - 0.021ms returns 0x01000000
T31A8 2247:351.543 JLINK_Halt()
T31A8 2247:351.556 - 0.020ms returns 0x00
T31A8 2247:351.575 JLINK_ReadMemU32(0xE000EDF0, 0x0001 Items, ...)
T31A8 2247:351.594    -- CPU_ReadMem(4 bytes @ 0xE000EDF0)
T31A8 2247:352.143   Data:  03 00 03 00
T31A8 2247:352.181    - DHCSR
T31A8 2247:352.202 - 0.634ms returns 1
T31A8 2247:352.230 JLINK_WriteU32(0xE000EDF0, 0xA05F0003)
T31A8 2247:352.247    - DHCSR
T31A8 2247:352.279    -- CPU_WriteMem(4 bytes @ 0xE000EDF0)
T31A8 2247:352.825 - 0.614ms returns 0
T31A8 2247:352.861 JLINK_WriteU32(0xE000EDFC, 0x01000000)
T31A8 2247:352.878    - DEMCR
T31A8 2247:352.907    -- CPU_WriteMem(4 bytes @ 0xE000EDFC)
T31A8 2247:353.617 - 0.787ms returns 0
T31A8 2247:353.785 JLINK_GetHWStatus(...)
T31A8 2247:354.177 - 0.416ms returns 0x00
T31A8 2247:354.253 JLINK_GetNumBPUnits(Type = 0xFFFFFF00)
T31A8 2247:354.272 - 0.026ms returns 0x06
T31A8 2247:354.289 JLINK_GetNumBPUnits(Type = 0xF0)
T31A8 2247:354.304 - 0.021ms returns 0x2000
T31A8 2247:354.322 JLINK_GetNumWPUnits()
T31A8 2247:354.340 - 0.024ms returns 0x04
T31A8 2247:354.373 JLINK_GetSpeed()
T31A8 2247:354.388 - 0.022ms returns 0x2EE0
T31A8 2247:354.415 JLINK_ReadMemU32(0xE000E004, 0x0001 Items, ...)
T31A8 2247:354.439    -- CPU_ReadMem(4 bytes @ 0xE000E004)
T31A8 2247:354.924   Data:  02 00 00 00
T31A8 2247:354.956 - 0.548ms returns 1
T31A8 2247:354.977 JLINK_ReadMemU32(0xE000E004, 0x0001 Items, ...)
T31A8 2247:354.997    -- CPU_ReadMem(4 bytes @ 0xE000E004)
T31A8 2247:355.543   Data:  02 00 00 00
T31A8 2247:355.574 - 0.604ms returns 1
T31A8 2247:355.598 JLINK_WriteMemEx(0xE0001000, 0x001C Bytes, ..., Flags = 0x02000004)
T31A8 2247:355.614   Data:  01 00 00 00 00 00 00 00 00 00 00 00 00 00 00 00 ...
T31A8 2247:355.997    -- CPU_WriteMem(28 bytes @ 0xE0001000)
T31A8 2247:356.643 - 1.062ms returns 0x1C
T31A8 2247:356.679 JLINK_ReadReg(R15 (PC))
T31A8 2247:356.697 - 0.026ms returns 0x0800025C
T31A8 2247:356.715 JLINK_ReadReg(XPSR)
T31A8 2247:356.730 - 0.022ms returns 0x01000000
T31A8 2247:390.560   JLINK_ReadMemEx(0xE0001004, 0x0004 Bytes, ..., Flags = 0x02000000)
T31A8 2247:390.611   Data:  00 00 00 00
T31A8 2247:390.633    - DWT_CYCCNT
T31A8 2247:390.652 - 0.100ms returns 0x04
T31A8 2247:525.663 JLINK_SetResetType(JLINKARM_CM3_RESET_TYPE_NORMAL)
T31A8 2247:525.703 - 0.047ms returns JLINKARM_CM3_RESET_TYPE_NORMAL
T31A8 2247:525.720 JLINK_Reset()
T31A8 2247:525.745    -- CPU_WriteMem(4 bytes @ 0xE000EDF0)
T31A8 2247:526.186    -- CPU_WriteMem(4 bytes @ 0xE000EDFC)
T31A8 2247:526.623   Reset: Halt core after reset via DEMCR.VC_CORERESET.
T31A8 2247:527.141   Reset: Reset device via AIRCR.SYSRESETREQ.
T31A8 2247:527.173    -- CPU_WriteMem(4 bytes @ 0xE000ED0C)
T31A8 2247:581.056    -- CPU_ReadMem(4 bytes @ 0xE000EDF0)
T31A8 2247:581.783    -- CPU_ReadMem(4 bytes @ 0xE000EDF0)
T31A8 2247:582.418    -- CPU_WriteMem(4 bytes @ 0xE000EDF0)
T31A8 2247:583.017    -- CPU_WriteMem(4 bytes @ 0xE000EDFC)
T31A8 2247:588.953    -- CPU_ReadMem(4 bytes @ 0xE000EDF0)
T31A8 2247:592.643    -- CPU_WriteMem(4 bytes @ 0xE0002000)
T31A8 2247:593.387    -- CPU_ReadMem(4 bytes @ 0xE000EDFC)
T31A8 2247:594.134    -- CPU_ReadMem(4 bytes @ 0xE0001000)
T31A8 2247:594.760 - 69.061ms
T31A8 2247:594.925 JLINK_ReadReg(R15 (PC))
T31A8 2247:594.954 - 0.037ms returns 0x0800025C
T31A8 2247:594.972 JLINK_ReadReg(XPSR)
T31A8 2247:594.987 - 0.022ms returns 0x01000000
T31A8 2247:867.743   JLINK_ReadMemEx(0x0800025C, 0x003C Bytes, ..., Flags = 0x02000000)
T31A8 2247:867.803    -- CPU_ReadMem(128 bytes @ 0x08000240)
T31A8 2247:868.966    -- Updating C cache (128 bytes @ 0x08000240)
T31A8 2247:869.014    -- Read from C cache (60 bytes @ 0x0800025C)
T31A8 2247:869.040   Data:  06 48 80 47 06 48 00 47 FE E7 FE E7 FE E7 FE E7 ...
T31A8 2247:869.061 - 1.326ms returns 0x3C
T31A8 2247:869.086   JLINK_ReadMemEx(0x0800025C, 0x0002 Bytes, ..., Flags = 0x02000000)
T31A8 2247:869.111    -- Read from C cache (2 bytes @ 0x0800025C)
T31A8 2247:869.132   Data:  06 48
T31A8 2247:869.158 - 0.087ms returns 0x02
T31A8 2247:869.362   JLINK_ReadMemEx(0x0800025E, 0x0002 Bytes, ..., Flags = 0x02000000)
T31A8 2247:869.400    -- Read from C cache (2 bytes @ 0x0800025E)
T31A8 2247:869.422   Data:  80 47
T31A8 2247:869.443 - 0.088ms returns 0x02
T31A8 2247:869.478   JLINK_ReadMemEx(0x0800025E, 0x0002 Bytes, ..., Flags = 0x02000000)
T31A8 2247:869.502    -- Read from C cache (2 bytes @ 0x0800025E)
T31A8 2247:869.524   Data:  80 47
T31A8 2247:869.546 - 0.075ms returns 0x02
T31A8 2247:869.564   JLINK_ReadMemEx(0x08000260, 0x003C Bytes, ..., Flags = 0x02000000)
T31A8 2247:869.587    -- Read from C cache (60 bytes @ 0x08000260)
T31A8 2247:869.608   Data:  06 48 00 47 FE E7 FE E7 FE E7 FE E7 FE E7 FE E7 ...
T31A8 2247:869.628 - 0.071ms returns 0x3C
T31A8 2247:869.645   JLINK_ReadMemEx(0x08000260, 0x0002 Bytes, ..., Flags = 0x02000000)
T31A8 2247:869.665    -- Read from C cache (2 bytes @ 0x08000260)
T31A8 2247:869.685   Data:  06 48
T31A8 2247:869.705 - 0.067ms returns 0x02
T31A8 2250:292.761 JLINK_ReadReg(R0)
T31A8 2250:293.191 - 0.447ms returns 0x00000000
T31A8 2250:293.220 JLINK_ReadReg(R1)
T31A8 2250:293.235 - 0.022ms returns 0x00000000
T31A8 2250:293.252 JLINK_ReadReg(R2)
T31A8 2250:293.266 - 0.021ms returns 0x00000000
T31A8 2250:293.283 JLINK_ReadReg(R3)
T31A8 2250:293.298 - 0.021ms returns 0x00000000
T31A8 2250:293.314 JLINK_ReadReg(R4)
T31A8 2250:293.329 - 0.021ms returns 0x00000000
T31A8 2250:293.346 JLINK_ReadReg(R5)
T31A8 2250:293.360 - 0.021ms returns 0x00000000
T31A8 2250:293.376 JLINK_ReadReg(R6)
T31A8 2250:293.391 - 0.021ms returns 0x00000000
T31A8 2250:293.408 JLINK_ReadReg(R7)
T31A8 2250:293.422 - 0.021ms returns 0x00000000
T31A8 2250:293.439 JLINK_ReadReg(R8)
T31A8 2250:293.453 - 0.021ms returns 0x00000000
T31A8 2250:293.470 JLINK_ReadReg(R9)
T31A8 2250:293.484 - 0.021ms returns 0x00000000
T31A8 2250:293.501 JLINK_ReadReg(R10)
T31A8 2250:293.515 - 0.021ms returns 0x00000000
T31A8 2250:293.532 JLINK_ReadReg(R11)
T31A8 2250:293.546 - 0.021ms returns 0x00000000
T31A8 2250:293.562 JLINK_ReadReg(R12)
T31A8 2250:293.576 - 0.021ms returns 0x00000000
T31A8 2250:293.593 JLINK_ReadReg(R13 (SP))
T31A8 2250:293.607 - 0.021ms returns 0x20005ED0
T31A8 2250:293.624 JLINK_ReadReg(R14)
T31A8 2250:293.638 - 0.021ms returns 0xFFFFFFFF
T31A8 2250:293.655 JLINK_ReadReg(R15 (PC))
T31A8 2250:293.669 - 0.021ms returns 0x0800025C
T31A8 2250:293.686 JLINK_ReadReg(XPSR)
T31A8 2250:293.700 - 0.021ms returns 0x01000000
T31A8 2250:293.716 JLINK_ReadReg(MSP)
T31A8 2250:293.730 - 0.021ms returns 0x20005ED0
T31A8 2250:293.747 JLINK_ReadReg(PSP)
T31A8 2250:293.761 - 0.021ms returns 0x00000000
T31A8 2250:293.778 JLINK_ReadReg(CFBP)
T31A8 2250:293.792 - 0.021ms returns 0x00000000
T31A8 2250:293.809 JLINK_ReadReg(FPSCR)
T31A8 2250:297.564 - 3.769ms returns 0x00000000
T31A8 2250:297.590 JLINK_ReadReg(FPS0)
T31A8 2250:297.607 - 0.023ms returns 0x00000000
T31A8 2250:297.624 JLINK_ReadReg(FPS1)
T31A8 2250:297.638 - 0.021ms returns 0x00000000
T31A8 2250:297.655 JLINK_ReadReg(FPS2)
T31A8 2250:297.669 - 0.021ms returns 0x00000000
T31A8 2250:297.686 JLINK_ReadReg(FPS3)
T31A8 2250:297.700 - 0.021ms returns 0x00000000
T31A8 2250:297.717 JLINK_ReadReg(FPS4)
T31A8 2250:297.731 - 0.021ms returns 0x00000000
T31A8 2250:297.748 JLINK_ReadReg(FPS5)
T31A8 2250:297.762 - 0.021ms returns 0x00000000
T31A8 2250:297.779 JLINK_ReadReg(FPS6)
T31A8 2250:297.793 - 0.021ms returns 0x00000000
T31A8 2250:297.809 JLINK_ReadReg(FPS7)
T31A8 2250:297.823 - 0.021ms returns 0x00000000
T31A8 2250:297.840 JLINK_ReadReg(FPS8)
T31A8 2250:297.854 - 0.090ms returns 0x00000000
T31A8 2250:297.945 JLINK_ReadReg(FPS9)
T31A8 2250:297.960 - 0.022ms returns 0x00000000
T31A8 2250:297.976 JLINK_ReadReg(FPS10)
T31A8 2250:297.990 - 0.020ms returns 0x00000000
T31A8 2250:298.006 JLINK_ReadReg(FPS11)
T31A8 2250:298.020 - 0.020ms returns 0x00000000
T31A8 2250:298.036 JLINK_ReadReg(FPS12)
T31A8 2250:298.050 - 0.020ms returns 0x00000000
T31A8 2250:298.066 JLINK_ReadReg(FPS13)
T31A8 2250:298.079 - 0.020ms returns 0x00000000
T31A8 2250:298.096 JLINK_ReadReg(FPS14)
T31A8 2250:298.109 - 0.020ms returns 0x00000000
T31A8 2250:298.125 JLINK_ReadReg(FPS15)
T31A8 2250:318.837 - 20.721ms returns 0x00000000
T31A8 2250:318.862 JLINK_ReadReg(FPS16)
T31A8 2250:318.878 - 0.022ms returns 0x00000000
T31A8 2250:318.897 JLINK_ReadReg(FPS17)
T31A8 2250:318.911 - 0.021ms returns 0x00000000
T31A8 2250:318.930 JLINK_ReadReg(FPS18)
T31A8 2250:318.945 - 0.021ms returns 0x00000000
T31A8 2250:318.962 JLINK_ReadReg(FPS19)
T31A8 2250:318.976 - 0.021ms returns 0x00000000
T31A8 2250:318.995 JLINK_ReadReg(FPS20)
T31A8 2250:319.009 - 0.021ms returns 0x00000000
T31A8 2250:319.026 JLINK_ReadReg(FPS21)
T31A8 2250:319.040 - 0.021ms returns 0x00000000
T31A8 2250:319.058 JLINK_ReadReg(FPS22)
T31A8 2250:319.072 - 0.021ms returns 0x00000000
T31A8 2250:319.089 JLINK_ReadReg(FPS23)
T31A8 2250:319.103 - 0.021ms returns 0x00000000
T31A8 2250:319.122 JLINK_ReadReg(FPS24)
T31A8 2250:319.136 - 0.021ms returns 0x00000000
T31A8 2250:319.154 JLINK_ReadReg(FPS25)
T31A8 2250:319.168 - 0.021ms returns 0x00000000
T31A8 2250:319.185 JLINK_ReadReg(FPS26)
T31A8 2250:319.199 - 0.021ms returns 0x00000000
T31A8 2250:319.217 JLINK_ReadReg(FPS27)
T31A8 2250:319.231 - 0.021ms returns 0x00000000
T31A8 2250:319.247 JLINK_ReadReg(FPS28)
T31A8 2250:319.262 - 0.021ms returns 0x00000000
T31A8 2250:319.280 JLINK_ReadReg(FPS29)
T31A8 2250:319.294 - 0.021ms returns 0x00000000
T31A8 2250:319.310 JLINK_ReadReg(FPS30)
T31A8 2250:319.324 - 0.020ms returns 0x00000000
T31A8 2250:319.342 JLINK_ReadReg(FPS31)
T31A8 2250:319.356 - 0.021ms returns 0x00000000
T5300 2250:392.801   JLINK_ReadMemEx(0x0800025C, 0x0002 Bytes, ..., Flags = 0x02000000)
T5300 2250:392.850    -- Read from C cache (2 bytes @ 0x0800025C)
T5300 2250:392.872   Data:  06 48
T5300 2250:392.893 - 0.100ms returns 0x02
T5300 2250:392.922   JLINK_SetBPEx(Addr = 0x08004018, Type = 0xFFFFFFF2)
T5300 2250:392.947 - 0.033ms returns 0x00000001
T5300 2250:392.972 JLINK_Go()
T5300 2250:393.035    -- CPU_WriteMem(4 bytes @ 0xE0002000)
T5300 2250:393.512    -- CPU_ReadMem(4 bytes @ 0xE0001000)
T5300 2250:393.880    -- CPU_WriteMem(4 bytes @ 0xE0002008)
T5300 2250:393.913    -- CPU_WriteMem(4 bytes @ 0xE000200C)
T5300 2250:393.935    -- CPU_WriteMem(4 bytes @ 0xE0002010)
T5300 2250:393.959    -- CPU_WriteMem(4 bytes @ 0xE0002014)
T5300 2250:393.987    -- CPU_WriteMem(4 bytes @ 0xE0002018)
T5300 2250:394.009    -- CPU_WriteMem(4 bytes @ 0xE000201C)
T5300 2250:395.598    -- CPU_WriteMem(4 bytes @ 0xE0001004)
T5300 2250:396.428 - 3.474ms
T5300 2250:497.113 JLINK_IsHalted()
T5300 2250:499.784 - 2.690ms returns TRUE
T5300 2250:499.824 JLINK_Halt()
T5300 2250:499.841 - 0.024ms returns 0x00
T5300 2250:499.861 JLINK_IsHalted()
T5300 2250:499.876 - 0.022ms returns TRUE
T5300 2250:499.895 JLINK_IsHalted()
T5300 2250:499.910 - 0.021ms returns TRUE
T5300 2250:499.929 JLINK_IsHalted()
T5300 2250:499.943 - 0.021ms returns TRUE
T5300 2250:499.966 JLINK_ReadReg(R15 (PC))
T5300 2250:499.984 - 0.025ms returns 0x08004018
T5300 2250:500.004 JLINK_ReadReg(XPSR)
T5300 2250:500.019 - 0.024ms returns 0x61000000
T5300 2250:500.094 JLINK_ClrBPEx(BPHandle = 0x00000001)
T5300 2250:500.122 - 0.036ms returns 0x00
T5300 2250:500.147 JLINK_ReadMemU32(0xE000ED30, 0x0001 Items, ...)
T5300 2250:500.169    -- CPU_ReadMem(4 bytes @ 0xE000ED30)
T5300 2250:500.663   Data:  02 00 00 00
T5300 2250:500.695 - 0.556ms returns 1
T5300 2250:500.716 JLINK_ReadMemU32(0xE0001028, 0x0001 Items, ...)
T5300 2250:500.738    -- CPU_ReadMem(4 bytes @ 0xE0001028)
T5300 2250:501.186   Data:  00 00 00 00
T5300 2250:501.226    - DWT_FUNC[0]
T5300 2250:501.247 - 0.539ms returns 1
T5300 2250:501.269 JLINK_ReadMemU32(0xE0001038, 0x0001 Items, ...)
T5300 2250:501.289    -- CPU_ReadMem(4 bytes @ 0xE0001038)
T5300 2250:501.947   Data:  00 02 00 00
T5300 2250:501.991    - DWT_FUNC[1]
T5300 2250:502.013 - 0.753ms returns 1
T5300 2250:502.035 JLINK_ReadMemU32(0xE0001048, 0x0001 Items, ...)
T5300 2250:502.056    -- CPU_ReadMem(4 bytes @ 0xE0001048)
T5300 2250:502.580   Data:  00 00 00 00
T5300 2250:502.613    - DWT_FUNC[2]
T5300 2250:502.634 - 0.607ms returns 1
T5300 2250:502.655 JLINK_ReadMemU32(0xE0001058, 0x0001 Items, ...)
T5300 2250:502.675    -- CPU_ReadMem(4 bytes @ 0xE0001058)
T5300 2250:503.185   Data:  00 00 00 00
T5300 2250:503.217    - DWT_FUNC[3]
T5300 2250:503.238 - 0.590ms returns 1
T5300 2250:503.310 JLINK_ReadReg(R0)
T5300 2250:503.329 - 0.027ms returns 0x08004019
T5300 2250:503.347 JLINK_ReadReg(R1)
T5300 2250:503.365 - 0.025ms returns 0x20005ED0
T5300 2250:503.382 JLINK_ReadReg(R2)
T5300 2250:503.397 - 0.022ms returns 0x00000000
T5300 2250:503.414 JLINK_ReadReg(R3)
T5300 2250:503.429 - 0.022ms returns 0x08002755
T5300 2250:503.447 JLINK_ReadReg(R4)
T5300 2250:503.462 - 0.022ms returns 0x08006C90
T5300 2250:503.479 JLINK_ReadReg(R5)
T5300 2250:503.493 - 0.021ms returns 0x08006C90
T5300 2250:503.510 JLINK_ReadReg(R6)
T5300 2250:503.524 - 0.021ms returns 0x00000000
T5300 2250:503.541 JLINK_ReadReg(R7)
T5300 2250:503.556 - 0.021ms returns 0x00000000
T5300 2250:503.573 JLINK_ReadReg(R8)
T5300 2250:503.587 - 0.021ms returns 0x00000000
T5300 2250:503.606 JLINK_ReadReg(R9)
T5300 2250:503.622 - 0.022ms returns 0x00000000
T5300 2250:503.638 JLINK_ReadReg(R10)
T5300 2250:503.654 - 0.022ms returns 0x00000000
T5300 2250:503.671 JLINK_ReadReg(R11)
T5300 2250:503.685 - 0.021ms returns 0x00000000
T5300 2250:503.702 JLINK_ReadReg(R12)
T5300 2250:503.717 - 0.021ms returns 0x00000000
T5300 2250:503.734 JLINK_ReadReg(R13 (SP))
T5300 2250:503.749 - 0.023ms returns 0x20005ED0
T5300 2250:503.767 JLINK_ReadReg(R14)
T5300 2250:503.781 - 0.022ms returns 0x08000749
T5300 2250:503.799 JLINK_ReadReg(R15 (PC))
T5300 2250:503.813 - 0.022ms returns 0x08004018
T5300 2250:503.831 JLINK_ReadReg(XPSR)
T5300 2250:503.845 - 0.021ms returns 0x61000000
T5300 2250:503.862 JLINK_ReadReg(MSP)
T5300 2250:503.877 - 0.021ms returns 0x20005ED0
T5300 2250:503.894 JLINK_ReadReg(PSP)
T5300 2250:503.909 - 0.022ms returns 0x00000000
T5300 2250:503.926 JLINK_ReadReg(CFBP)
T5300 2250:503.941 - 0.022ms returns 0x00000000
T5300 2250:503.958 JLINK_ReadReg(FPSCR)
T5300 2250:507.966 - 4.026ms returns 0x00000000
T5300 2250:508.010 JLINK_ReadReg(FPS0)
T5300 2250:508.029 - 0.027ms returns 0x00000000
T5300 2250:508.047 JLINK_ReadReg(FPS1)
T5300 2250:508.063 - 0.023ms returns 0x00000000
T5300 2250:508.080 JLINK_ReadReg(FPS2)
T5300 2250:508.095 - 0.022ms returns 0x00000000
T5300 2250:508.113 JLINK_ReadReg(FPS3)
T5300 2250:508.128 - 0.022ms returns 0x00000000
T5300 2250:508.145 JLINK_ReadReg(FPS4)
T5300 2250:508.160 - 0.022ms returns 0x00000000
T5300 2250:508.178 JLINK_ReadReg(FPS5)
T5300 2250:508.193 - 0.022ms returns 0x00000000
T5300 2250:508.210 JLINK_ReadReg(FPS6)
T5300 2250:508.225 - 0.022ms returns 0x00000000
T5300 2250:508.242 JLINK_ReadReg(FPS7)
T5300 2250:508.261 - 0.026ms returns 0x00000000
T5300 2250:508.278 JLINK_ReadReg(FPS8)
T5300 2250:508.294 - 0.022ms returns 0x00000000
T5300 2250:508.311 JLINK_ReadReg(FPS9)
T5300 2250:508.326 - 0.022ms returns 0x00000000
T5300 2250:508.343 JLINK_ReadReg(FPS10)
T5300 2250:508.358 - 0.022ms returns 0x00000000
T5300 2250:508.375 JLINK_ReadReg(FPS11)
T5300 2250:508.390 - 0.022ms returns 0x00000000
T5300 2250:508.408 JLINK_ReadReg(FPS12)
T5300 2250:508.423 - 0.024ms returns 0x00000000
T5300 2250:508.442 JLINK_ReadReg(FPS13)
T5300 2250:508.457 - 0.022ms returns 0x00000000
T5300 2250:508.475 JLINK_ReadReg(FPS14)
T5300 2250:508.489 - 0.022ms returns 0x00000000
T5300 2250:508.506 JLINK_ReadReg(FPS15)
T5300 2250:508.521 - 0.026ms returns 0x00000000
T5300 2250:508.545 JLINK_ReadReg(FPS16)
T5300 2250:508.560 - 0.022ms returns 0x00000000
T5300 2250:508.578 JLINK_ReadReg(FPS17)
T5300 2250:508.592 - 0.022ms returns 0x00000000
T5300 2250:508.610 JLINK_ReadReg(FPS18)
T5300 2250:508.624 - 0.022ms returns 0x00000000
T5300 2250:508.641 JLINK_ReadReg(FPS19)
T5300 2250:508.656 - 0.022ms returns 0x00000000
T5300 2250:508.673 JLINK_ReadReg(FPS20)
T5300 2250:508.687 - 0.021ms returns 0x00000000
T5300 2250:508.704 JLINK_ReadReg(FPS21)
T5300 2250:508.718 - 0.021ms returns 0x00000000
T5300 2250:508.735 JLINK_ReadReg(FPS22)
T5300 2250:508.750 - 0.022ms returns 0x00000000
T5300 2250:508.766 JLINK_ReadReg(FPS23)
T5300 2250:508.781 - 0.022ms returns 0x00000000
T5300 2250:508.798 JLINK_ReadReg(FPS24)
T5300 2250:508.813 - 0.022ms returns 0x00000000
T5300 2250:508.831 JLINK_ReadReg(FPS25)
T5300 2250:508.847 - 0.023ms returns 0x00000000
T5300 2250:508.864 JLINK_ReadReg(FPS26)
T5300 2250:508.878 - 0.021ms returns 0x00000000
T5300 2250:508.895 JLINK_ReadReg(FPS27)
T5300 2250:508.910 - 0.021ms returns 0x00000000
T5300 2250:508.927 JLINK_ReadReg(FPS28)
T5300 2250:508.942 - 0.021ms returns 0x00000000
T5300 2250:508.958 JLINK_ReadReg(FPS29)
T5300 2250:508.973 - 0.022ms returns 0x00000000
T5300 2250:508.990 JLINK_ReadReg(FPS30)
T5300 2250:509.008 - 0.024ms returns 0x00000000
T5300 2250:509.025 JLINK_ReadReg(FPS31)
T5300 2250:509.039 - 0.021ms returns 0x00000000
T5300 2259:601.525   JLINK_ReadMemEx(0x08004018, 0x0002 Bytes, ..., Flags = 0x02000000)
T5300 2259:601.589    -- CPU_ReadMem(64 bytes @ 0x08004000)
T5300 2259:602.460    -- Updating C cache (64 bytes @ 0x08004000)
T5300 2259:602.497    -- Read from C cache (2 bytes @ 0x08004018)
T5300 2259:602.521   Data:  FC F7
T5300 2259:602.542 - 1.026ms returns 0x02
T5300 2259:602.569   JLINK_SetBPEx(Addr = 0x08001070, Type = 0xFFFFFFF2)
T5300 2259:602.593 - 0.032ms returns 0x00000002
T5300 2259:602.617 JLINK_Go()
T5300 2259:603.154    -- CPU_WriteMem(4 bytes @ 0xE0002000)
T5300 2259:603.681    -- CPU_ReadMem(4 bytes @ 0xE0001000)
T5300 2259:604.224    -- CPU_WriteMem(4 bytes @ 0xE0002008)
T5300 2259:605.542 - 2.958ms
T5300 2259:706.274 JLINK_IsHalted()
T5300 2259:708.883 - 2.625ms returns TRUE
T5300 2259:708.916 JLINK_Halt()
T5300 2259:708.931 - 0.022ms returns 0x00
T5300 2259:708.948 JLINK_IsHalted()
T5300 2259:708.962 - 0.021ms returns TRUE
T5300 2259:708.979 JLINK_IsHalted()
T5300 2259:708.993 - 0.021ms returns TRUE
T5300 2259:709.010 JLINK_IsHalted()
T5300 2259:709.024 - 0.020ms returns TRUE
T5300 2259:709.044 JLINK_ReadReg(R15 (PC))
T5300 2259:709.061 - 0.024ms returns 0x08001070
T5300 2259:709.078 JLINK_ReadReg(XPSR)
T5300 2259:709.093 - 0.021ms returns 0x21000000
T5300 2259:709.115 JLINK_ClrBPEx(BPHandle = 0x00000002)
T5300 2259:709.131 - 0.023ms returns 0x00
T5300 2259:709.153 JLINK_ReadMemU32(0xE000ED30, 0x0001 Items, ...)
T5300 2259:709.174    -- CPU_ReadMem(4 bytes @ 0xE000ED30)
T5300 2259:709.639   Data:  02 00 00 00
T5300 2259:709.670 - 0.524ms returns 1
T5300 2259:709.690 JLINK_ReadMemU32(0xE0001028, 0x0001 Items, ...)
T5300 2259:709.711    -- CPU_ReadMem(4 bytes @ 0xE0001028)
T5300 2259:710.305   Data:  00 00 00 00
T5300 2259:710.336    - DWT_FUNC[0]
T5300 2259:710.357 - 0.673ms returns 1
T5300 2259:710.377 JLINK_ReadMemU32(0xE0001038, 0x0001 Items, ...)
T5300 2259:710.397    -- CPU_ReadMem(4 bytes @ 0xE0001038)
T5300 2259:710.916   Data:  00 02 00 00
T5300 2259:710.948    - DWT_FUNC[1]
T5300 2259:710.968 - 0.598ms returns 1
T5300 2259:710.988 JLINK_ReadMemU32(0xE0001048, 0x0001 Items, ...)
T5300 2259:711.008    -- CPU_ReadMem(4 bytes @ 0xE0001048)
T5300 2259:711.515   Data:  00 00 00 00
T5300 2259:711.546    - DWT_FUNC[2]
T5300 2259:711.567 - 0.585ms returns 1
T5300 2259:711.586 JLINK_ReadMemU32(0xE0001058, 0x0001 Items, ...)
T5300 2259:711.607    -- CPU_ReadMem(4 bytes @ 0xE0001058)
T5300 2259:712.093   Data:  00 00 00 00
T5300 2259:712.124    - DWT_FUNC[3]
T5300 2259:712.145 - 0.565ms returns 1
T5300 2259:712.216 JLINK_ReadReg(R0)
T5300 2259:712.241 - 0.033ms returns 0x2000056C
T5300 2259:712.260 JLINK_ReadReg(R1)
T5300 2259:712.274 - 0.022ms returns 0x0000001F
T5300 2259:712.291 JLINK_ReadReg(R2)
T5300 2259:712.305 - 0.021ms returns 0x000003E7
T5300 2259:712.322 JLINK_ReadReg(R3)
T5300 2259:712.336 - 0.021ms returns 0x00001C00
T5300 2259:712.353 JLINK_ReadReg(R4)
T5300 2259:712.367 - 0.021ms returns 0x00000000
T5300 2259:712.384 JLINK_ReadReg(R5)
T5300 2259:712.398 - 0.021ms returns 0x08006C90
T5300 2259:712.415 JLINK_ReadReg(R6)
T5300 2259:712.429 - 0.021ms returns 0x00000000
T5300 2259:712.445 JLINK_ReadReg(R7)
T5300 2259:712.460 - 0.021ms returns 0x00000000
T5300 2259:712.476 JLINK_ReadReg(R8)
T5300 2259:712.491 - 0.021ms returns 0x00000000
T5300 2259:712.507 JLINK_ReadReg(R9)
T5300 2259:712.521 - 0.021ms returns 0x00000000
T5300 2259:712.538 JLINK_ReadReg(R10)
T5300 2259:712.552 - 0.021ms returns 0x00000000
T5300 2259:712.569 JLINK_ReadReg(R11)
T5300 2259:712.583 - 0.021ms returns 0x00000000
T5300 2259:712.600 JLINK_ReadReg(R12)
T5300 2259:712.614 - 0.021ms returns 0x00000000
T5300 2259:712.630 JLINK_ReadReg(R13 (SP))
T5300 2259:712.645 - 0.021ms returns 0x20005EA0
T5300 2259:712.662 JLINK_ReadReg(R14)
T5300 2259:712.676 - 0.021ms returns 0x08001055
T5300 2259:712.693 JLINK_ReadReg(R15 (PC))
T5300 2259:712.707 - 0.021ms returns 0x08001070
T5300 2259:712.723 JLINK_ReadReg(XPSR)
T5300 2259:712.738 - 0.021ms returns 0x21000000
T5300 2259:712.754 JLINK_ReadReg(MSP)
T5300 2259:712.769 - 0.021ms returns 0x20005EA0
T5300 2259:712.785 JLINK_ReadReg(PSP)
T5300 2259:712.799 - 0.021ms returns 0x00000000
T5300 2259:712.816 JLINK_ReadReg(CFBP)
T5300 2259:712.830 - 0.021ms returns 0x00000000
T5300 2259:712.847 JLINK_ReadReg(FPSCR)
T5300 2259:716.568 - 3.741ms returns 0x00000000
T5300 2259:716.602 JLINK_ReadReg(FPS0)
T5300 2259:716.620 - 0.025ms returns 0x00000000
T5300 2259:716.638 JLINK_ReadReg(FPS1)
T5300 2259:716.653 - 0.022ms returns 0x00000000
T5300 2259:716.671 JLINK_ReadReg(FPS2)
T5300 2259:716.686 - 0.022ms returns 0x00000000
T5300 2259:716.703 JLINK_ReadReg(FPS3)
T5300 2259:716.718 - 0.022ms returns 0x00000000
T5300 2259:716.735 JLINK_ReadReg(FPS4)
T5300 2259:716.750 - 0.022ms returns 0x00000000
T5300 2259:716.767 JLINK_ReadReg(FPS5)
T5300 2259:716.784 - 0.024ms returns 0x00000000
T5300 2259:716.800 JLINK_ReadReg(FPS6)
T5300 2259:716.815 - 0.021ms returns 0x00000000
T5300 2259:716.832 JLINK_ReadReg(FPS7)
T5300 2259:716.846 - 0.021ms returns 0x00000000
T5300 2259:716.863 JLINK_ReadReg(FPS8)
T5300 2259:716.878 - 0.021ms returns 0x00000000
T5300 2259:716.894 JLINK_ReadReg(FPS9)
T5300 2259:716.908 - 0.021ms returns 0x00000000
T5300 2259:716.926 JLINK_ReadReg(FPS10)
T5300 2259:716.940 - 0.021ms returns 0x00000000
T5300 2259:716.957 JLINK_ReadReg(FPS11)
T5300 2259:716.971 - 0.021ms returns 0x00000000
T5300 2259:716.988 JLINK_ReadReg(FPS12)
T5300 2259:717.002 - 0.021ms returns 0x00000000
T5300 2259:717.019 JLINK_ReadReg(FPS13)
T5300 2259:717.034 - 0.021ms returns 0x00000000
T5300 2259:717.051 JLINK_ReadReg(FPS14)
T5300 2259:717.065 - 0.021ms returns 0x00000000
T5300 2259:717.082 JLINK_ReadReg(FPS15)
T5300 2259:717.096 - 0.021ms returns 0x00000000
T5300 2259:717.113 JLINK_ReadReg(FPS16)
T5300 2259:717.127 - 0.021ms returns 0x00000000
T5300 2259:717.144 JLINK_ReadReg(FPS17)
T5300 2259:717.158 - 0.021ms returns 0x00000000
T5300 2259:717.175 JLINK_ReadReg(FPS18)
T5300 2259:717.191 - 0.023ms returns 0x00000000
T5300 2259:717.208 JLINK_ReadReg(FPS19)
T5300 2259:717.244 - 0.043ms returns 0x00000000
T5300 2259:717.262 JLINK_ReadReg(FPS20)
T5300 2259:717.276 - 0.021ms returns 0x00000000
T5300 2259:717.293 JLINK_ReadReg(FPS21)
T5300 2259:717.307 - 0.021ms returns 0x00000000
T5300 2259:717.324 JLINK_ReadReg(FPS22)
T5300 2259:717.339 - 0.021ms returns 0x00000000
T5300 2259:717.355 JLINK_ReadReg(FPS23)
T5300 2259:717.370 - 0.021ms returns 0x00000000
T5300 2259:717.386 JLINK_ReadReg(FPS24)
T5300 2259:717.401 - 0.021ms returns 0x00000000
T5300 2259:717.417 JLINK_ReadReg(FPS25)
T5300 2259:717.500 - 0.094ms returns 0x00000000
T5300 2259:717.522 JLINK_ReadReg(FPS26)
T5300 2259:717.537 - 0.021ms returns 0x00000000
T5300 2259:717.553 JLINK_ReadReg(FPS27)
T5300 2259:717.567 - 0.020ms returns 0x00000000
T5300 2259:717.583 JLINK_ReadReg(FPS28)
T5300 2259:717.597 - 0.020ms returns 0x00000000
T5300 2259:717.613 JLINK_ReadReg(FPS29)
T5300 2259:717.627 - 0.020ms returns 0x00000000
T5300 2259:717.643 JLINK_ReadReg(FPS30)
T5300 2259:717.657 - 0.020ms returns 0x00000000
T5300 2259:717.673 JLINK_ReadReg(FPS31)
T5300 2259:717.686 - 0.020ms returns 0x00000000
T31A8 2259:718.821   JLINK_ReadMemEx(0x20005EC4, 0x0004 Bytes, ..., Flags = 0x02000000)
T31A8 2259:718.863    -- CPU_ReadMem(64 bytes @ 0x20005EC0)
T31A8 2259:719.646    -- Updating C cache (64 bytes @ 0x20005EC0)
T31A8 2259:719.675    -- Read from C cache (4 bytes @ 0x20005EC4)
T31A8 2259:719.696   Data:  15 10 00 08
T31A8 2259:719.717 - 0.904ms returns 0x04
T31A8 2259:720.220   JLINK_ReadMemEx(0x20005EC0, 0x0004 Bytes, ..., Flags = 0x02000000)
T31A8 2259:720.249    -- Read from C cache (4 bytes @ 0x20005EC0)
T31A8 2259:720.269   Data:  90 6C 00 08
T31A8 2259:720.289 - 0.077ms returns 0x04
T31A8 2259:720.308   JLINK_ReadMemEx(0x20005EC4, 0x0004 Bytes, ..., Flags = 0x02000000)
T31A8 2259:720.329    -- Read from C cache (4 bytes @ 0x20005EC4)
T31A8 2259:720.349   Data:  15 10 00 08
T31A8 2259:720.368 - 0.068ms returns 0x04
T31A8 2259:720.387   JLINK_ReadMemEx(0x20005ECC, 0x0004 Bytes, ..., Flags = 0x02000000)
T31A8 2259:720.409    -- Read from C cache (4 bytes @ 0x20005ECC)
T31A8 2259:720.429   Data:  1D 40 00 08
T31A8 2259:720.451 - 0.071ms returns 0x04
T31A8 2259:720.470   JLINK_ReadMemEx(0x20005EC8, 0x0004 Bytes, ..., Flags = 0x02000000)
T31A8 2259:720.491    -- Read from C cache (4 bytes @ 0x20005EC8)
T31A8 2259:720.511   Data:  90 6C 00 08
T31A8 2259:720.530 - 0.068ms returns 0x04
T31A8 2259:720.547   JLINK_ReadMemEx(0x20005ECC, 0x0004 Bytes, ..., Flags = 0x02000000)
T31A8 2259:720.568    -- Read from C cache (4 bytes @ 0x20005ECC)
T31A8 2259:720.588   Data:  1D 40 00 08
T31A8 2259:720.608 - 0.067ms returns 0x04
T31A8 2259:720.650   JLINK_ReadMemEx(0x20005EB4, 0x0004 Bytes, ..., Flags = 0x02000000)
T31A8 2259:720.676    -- CPU_ReadMem(64 bytes @ 0x20005E80)
T31A8 2259:721.464    -- Updating C cache (64 bytes @ 0x20005E80)
T31A8 2259:721.492    -- Read from C cache (4 bytes @ 0x20005EB4)
T31A8 2259:721.513   Data:  00 00 00 00
T31A8 2259:721.534 - 0.891ms returns 0x04
T31A8 2259:721.556   JLINK_ReadMemEx(0x20005EB8, 0x0004 Bytes, ..., Flags = 0x02000000)
T31A8 2259:721.580    -- Read from C cache (4 bytes @ 0x20005EB8)
T31A8 2259:721.600   Data:  10 00 00 00
T31A8 2259:721.620 - 0.072ms returns 0x04
T31A8 2259:726.127   JLINK_ReadMemEx(0x20005EB4, 0x0004 Bytes, ..., Flags = 0x02000000)
T31A8 2259:726.162    -- Read from C cache (4 bytes @ 0x20005EB4)
T31A8 2259:726.184   Data:  00 00 00 00
T31A8 2259:726.204 - 0.085ms returns 0x04
T31A8 2259:726.224   JLINK_ReadMemEx(0x20005EB8, 0x0004 Bytes, ..., Flags = 0x02000000)
T31A8 2259:726.246    -- Read from C cache (4 bytes @ 0x20005EB8)
T31A8 2259:726.267   Data:  10 00 00 00
T31A8 2259:726.287 - 0.071ms returns 0x04
T31A8 2287:310.028   JLINK_ReadMemEx(0x08001050, 0x003C Bytes, ..., Flags = 0x02000000)
T31A8 2287:310.086    -- CPU_ReadMem(128 bytes @ 0x08001040)
T31A8 2287:311.126    -- Updating C cache (128 bytes @ 0x08001040)
T31A8 2287:311.156    -- Read from C cache (60 bytes @ 0x08001050)
T31A8 2287:311.179   Data:  00 F0 36 F9 0C 49 40 00 B0 FB F1 F1 0C 48 0B 4A ...
T31A8 2287:311.200 - 1.180ms returns 0x3C
T31A8 2287:311.221   JLINK_ReadMemEx(0x08001050, 0x0002 Bytes, ..., Flags = 0x02000000)
T31A8 2287:311.243    -- Read from C cache (2 bytes @ 0x08001050)
T31A8 2287:311.263   Data:  00 F0
T31A8 2287:311.284 - 0.071ms returns 0x02
T31A8 2287:311.303   JLINK_ReadMemEx(0x08001052, 0x0002 Bytes, ..., Flags = 0x02000000)
T31A8 2287:311.325    -- Read from C cache (2 bytes @ 0x08001052)
T31A8 2287:311.345   Data:  36 F9
T31A8 2287:311.373 - 0.077ms returns 0x02
T5300 2294:110.086   JLINK_ReadMemEx(0x08001070, 0x0002 Bytes, ..., Flags = 0x02000000)
T5300 2294:110.138    -- Read from C cache (2 bytes @ 0x08001070)
T5300 2294:110.161   Data:  00 F0
T5300 2294:110.183 - 0.105ms returns 0x02
T5300 2294:110.215 JLINK_Step()
T5300 2294:110.811    -- Read from C cache (2 bytes @ 0x08001070)
T5300 2294:110.855    -- CPU_ReadMem(4 bytes @ 0xE000ED18)
T5300 2294:111.407    -- CPU_WriteMem(4 bytes @ 0xE000ED18)
T5300 2294:111.908    -- CPU_ReadMem(4 bytes @ 0xE000ED18)
T5300 2294:112.406    -- CPU_WriteMem(4 bytes @ 0xE000ED18)
T5300 2294:112.779    -- CPU_ReadMem(4 bytes @ 0xE0001004)
T5300 2294:113.204    -- Read from C cache (2 bytes @ 0x08001072)
T5300 2294:113.234    -- Simulated
T5300 2294:113.254 - 3.046ms returns 0x00
T5300 2294:113.279 JLINK_ReadReg(R15 (PC))
T5300 2294:113.297 - 0.024ms returns 0x08001948
T5300 2294:113.314 JLINK_ReadReg(XPSR)
T5300 2294:113.328 - 0.021ms returns 0x21000000
T5300 2294:113.352   JLINK_SetBPEx(Addr = 0x08001070, Type = 0xFFFFFFF2)
T5300 2294:113.374 - 0.030ms returns 0x00000003
T5300 2294:113.394   JLINK_SetBPEx(Addr = 0x0800107C, Type = 0xFFFFFFF2)
T5300 2294:113.415 - 0.027ms returns 0x00000004
T5300 2294:113.436 JLINK_Go()
T5300 2294:113.455    -- CPU_WriteMem(4 bytes @ 0xE0002000)
T5300 2294:113.830    -- CPU_WriteMem(4 bytes @ 0xE0002000)
T5300 2294:114.208    -- CPU_ReadMem(4 bytes @ 0xE0001000)
T5300 2294:114.580    -- CPU_WriteMem(4 bytes @ 0xE000200C)
T5300 2294:115.005    -- CPU_WriteMem(4 bytes @ 0xE0001004)
T5300 2294:116.431 - 3.011ms
T5300 2294:216.646 JLINK_IsHalted()
T5300 2294:219.413 - 2.792ms returns TRUE
T5300 2294:219.459 JLINK_Halt()
T5300 2294:219.475 - 0.022ms returns 0x00
T5300 2294:219.492 JLINK_IsHalted()
T5300 2294:219.507 - 0.021ms returns TRUE
T5300 2294:219.525 JLINK_IsHalted()
T5300 2294:219.539 - 0.021ms returns TRUE
T5300 2294:219.555 JLINK_IsHalted()
T5300 2294:219.569 - 0.021ms returns TRUE
T5300 2294:219.591 JLINK_ReadReg(R15 (PC))
T5300 2294:219.609 - 0.024ms returns 0x0800107C
T5300 2294:219.695 JLINK_ReadReg(XPSR)
T5300 2294:219.723 - 0.036ms returns 0x41000000
T5300 2294:219.749 JLINK_ClrBPEx(BPHandle = 0x00000003)
T5300 2294:219.765 - 0.023ms returns 0x00
T5300 2294:219.785 JLINK_ClrBPEx(BPHandle = 0x00000004)
T5300 2294:219.800 - 0.022ms returns 0x00
T5300 2294:219.822 JLINK_ReadMemU32(0xE000ED30, 0x0001 Items, ...)
T5300 2294:219.842    -- CPU_ReadMem(4 bytes @ 0xE000ED30)
T5300 2294:220.617   Data:  02 00 00 00
T5300 2294:220.663 - 0.848ms returns 1
T5300 2294:220.686 JLINK_ReadMemU32(0xE0001028, 0x0001 Items, ...)
T5300 2294:220.710    -- CPU_ReadMem(4 bytes @ 0xE0001028)
T5300 2294:221.361   Data:  00 00 00 00
T5300 2294:221.408    - DWT_FUNC[0]
T5300 2294:221.428 - 0.749ms returns 1
T5300 2294:221.451 JLINK_ReadMemU32(0xE0001038, 0x0001 Items, ...)
T5300 2294:221.476    -- CPU_ReadMem(4 bytes @ 0xE0001038)
T5300 2294:222.190   Data:  00 02 00 00
T5300 2294:222.237    - DWT_FUNC[1]
T5300 2294:222.258 - 0.813ms returns 1
T5300 2294:222.281 JLINK_ReadMemU32(0xE0001048, 0x0001 Items, ...)
T5300 2294:222.305    -- CPU_ReadMem(4 bytes @ 0xE0001048)
T5300 2294:222.881   Data:  00 00 00 00
T5300 2294:222.927    - DWT_FUNC[2]
T5300 2294:222.947 - 0.674ms returns 1
T5300 2294:222.970 JLINK_ReadMemU32(0xE0001058, 0x0001 Items, ...)
T5300 2294:222.995    -- CPU_ReadMem(4 bytes @ 0xE0001058)
T5300 2294:223.560   Data:  00 00 00 00
T5300 2294:223.606    - DWT_FUNC[3]
T5300 2294:223.627 - 0.663ms returns 1
T5300 2294:223.703 JLINK_ReadReg(R0)
T5300 2294:223.724 - 0.029ms returns 0x00000000
T5300 2294:223.742 JLINK_ReadReg(R1)
T5300 2294:223.756 - 0.021ms returns 0x00000001
T5300 2294:223.773 JLINK_ReadReg(R2)
T5300 2294:223.788 - 0.021ms returns 0x0000001F
T5300 2294:223.805 JLINK_ReadReg(R3)
T5300 2294:223.819 - 0.021ms returns 0x40010400
T5300 2294:223.836 JLINK_ReadReg(R4)
T5300 2294:223.850 - 0.021ms returns 0x00000000
T5300 2294:223.867 JLINK_ReadReg(R5)
T5300 2294:223.881 - 0.021ms returns 0x08006C90
T5300 2294:223.902 JLINK_ReadReg(R6)
T5300 2294:223.921 - 0.025ms returns 0x00000000
T5300 2294:223.937 JLINK_ReadReg(R7)
T5300 2294:223.952 - 0.021ms returns 0x00000000
T5300 2294:223.968 JLINK_ReadReg(R8)
T5300 2294:223.983 - 0.021ms returns 0x00000000
T5300 2294:224.000 JLINK_ReadReg(R9)
T5300 2294:224.014 - 0.021ms returns 0x00000000
T5300 2294:224.031 JLINK_ReadReg(R10)
T5300 2294:224.045 - 0.021ms returns 0x00000000
T5300 2294:224.061 JLINK_ReadReg(R11)
T5300 2294:224.075 - 0.021ms returns 0x00000000
T5300 2294:224.092 JLINK_ReadReg(R12)
T5300 2294:224.106 - 0.021ms returns 0x40000000
T5300 2294:224.123 JLINK_ReadReg(R13 (SP))
T5300 2294:224.137 - 0.021ms returns 0x20005EA0
T5300 2294:224.154 JLINK_ReadReg(R14)
T5300 2294:224.168 - 0.021ms returns 0x08001975
T5300 2294:224.184 JLINK_ReadReg(R15 (PC))
T5300 2294:224.199 - 0.021ms returns 0x0800107C
T5300 2294:224.215 JLINK_ReadReg(XPSR)
T5300 2294:224.229 - 0.021ms returns 0x41000000
T5300 2294:224.246 JLINK_ReadReg(MSP)
T5300 2294:224.260 - 0.021ms returns 0x20005EA0
T5300 2294:224.277 JLINK_ReadReg(PSP)
T5300 2294:224.291 - 0.021ms returns 0x00000000
T5300 2294:224.307 JLINK_ReadReg(CFBP)
T5300 2294:224.322 - 0.021ms returns 0x00000000
T5300 2294:224.339 JLINK_ReadReg(FPSCR)
T5300 2294:228.853 - 4.546ms returns 0x00000000
T5300 2294:228.901 JLINK_ReadReg(FPS0)
T5300 2294:228.921 - 0.027ms returns 0x00000000
T5300 2294:228.939 JLINK_ReadReg(FPS1)
T5300 2294:228.956 - 0.024ms returns 0x00000000
T5300 2294:228.973 JLINK_ReadReg(FPS2)
T5300 2294:228.988 - 0.021ms returns 0x00000000
T5300 2294:229.005 JLINK_ReadReg(FPS3)
T5300 2294:229.019 - 0.021ms returns 0x00000000
T5300 2294:229.036 JLINK_ReadReg(FPS4)
T5300 2294:229.050 - 0.021ms returns 0x00000000
T5300 2294:229.067 JLINK_ReadReg(FPS5)
T5300 2294:229.081 - 0.021ms returns 0x00000000
T5300 2294:229.098 JLINK_ReadReg(FPS6)
T5300 2294:229.112 - 0.021ms returns 0x00000000
T5300 2294:229.129 JLINK_ReadReg(FPS7)
T5300 2294:229.143 - 0.021ms returns 0x00000000
T5300 2294:229.160 JLINK_ReadReg(FPS8)
T5300 2294:229.174 - 0.021ms returns 0x00000000
T5300 2294:229.191 JLINK_ReadReg(FPS9)
T5300 2294:229.205 - 0.021ms returns 0x00000000
T5300 2294:229.222 JLINK_ReadReg(FPS10)
T5300 2294:229.236 - 0.021ms returns 0x00000000
T5300 2294:229.253 JLINK_ReadReg(FPS11)
T5300 2294:229.267 - 0.022ms returns 0x00000000
T5300 2294:229.284 JLINK_ReadReg(FPS12)
T5300 2294:229.298 - 0.021ms returns 0x00000000
T5300 2294:229.315 JLINK_ReadReg(FPS13)
T5300 2294:229.330 - 0.021ms returns 0x00000000
T5300 2294:229.346 JLINK_ReadReg(FPS14)
T5300 2294:229.360 - 0.021ms returns 0x00000000
T5300 2294:229.377 JLINK_ReadReg(FPS15)
T5300 2294:229.391 - 0.021ms returns 0x00000000
T5300 2294:229.408 JLINK_ReadReg(FPS16)
T5300 2294:229.422 - 0.021ms returns 0x00000000
T5300 2294:229.439 JLINK_ReadReg(FPS17)
T5300 2294:229.455 - 0.023ms returns 0x00000000
T5300 2294:229.473 JLINK_ReadReg(FPS18)
T5300 2294:229.487 - 0.021ms returns 0x00000000
T5300 2294:229.504 JLINK_ReadReg(FPS19)
T5300 2294:229.518 - 0.021ms returns 0x00000000
T5300 2294:229.535 JLINK_ReadReg(FPS20)
T5300 2294:229.549 - 0.021ms returns 0x00000000
T5300 2294:229.566 JLINK_ReadReg(FPS21)
T5300 2294:229.580 - 0.021ms returns 0x00000000
T5300 2294:229.596 JLINK_ReadReg(FPS22)
T5300 2294:229.611 - 0.021ms returns 0x00000000
T5300 2294:229.627 JLINK_ReadReg(FPS23)
T5300 2294:229.641 - 0.021ms returns 0x00000000
T5300 2294:229.658 JLINK_ReadReg(FPS24)
T5300 2294:229.672 - 0.021ms returns 0x00000000
T5300 2294:229.688 JLINK_ReadReg(FPS25)
T5300 2294:229.703 - 0.021ms returns 0x00000000
T5300 2294:229.719 JLINK_ReadReg(FPS26)
T5300 2294:229.733 - 0.021ms returns 0x00000000
T5300 2294:229.750 JLINK_ReadReg(FPS27)
T5300 2294:229.764 - 0.021ms returns 0x00000000
T5300 2294:229.781 JLINK_ReadReg(FPS28)
T5300 2294:229.795 - 0.021ms returns 0x00000000
T5300 2294:229.811 JLINK_ReadReg(FPS29)
T5300 2294:229.826 - 0.021ms returns 0x00000000
T5300 2294:229.842 JLINK_ReadReg(FPS30)
T5300 2294:229.856 - 0.025ms returns 0x00000000
T5300 2294:229.881 JLINK_ReadReg(FPS31)
T5300 2294:229.895 - 0.021ms returns 0x00000000
T31A8 2294:230.213   JLINK_ReadMemEx(0x20005EC4, 0x0004 Bytes, ..., Flags = 0x02000000)
T31A8 2294:230.258    -- CPU_ReadMem(64 bytes @ 0x20005EC0)
T31A8 2294:231.194    -- Updating C cache (64 bytes @ 0x20005EC0)
T31A8 2294:231.240    -- Read from C cache (4 bytes @ 0x20005EC4)
T31A8 2294:231.263   Data:  15 10 00 08
T31A8 2294:231.284 - 1.079ms returns 0x04
T31A8 2294:231.316   JLINK_ReadMemEx(0x20005EC0, 0x0004 Bytes, ..., Flags = 0x02000000)
T31A8 2294:231.341    -- Read from C cache (4 bytes @ 0x20005EC0)
T31A8 2294:231.362   Data:  90 6C 00 08
T31A8 2294:231.382 - 0.074ms returns 0x04
T31A8 2294:231.400   JLINK_ReadMemEx(0x20005EC4, 0x0004 Bytes, ..., Flags = 0x02000000)
T31A8 2294:231.422    -- Read from C cache (4 bytes @ 0x20005EC4)
T31A8 2294:231.442   Data:  15 10 00 08
T31A8 2294:231.462 - 0.070ms returns 0x04
T31A8 2294:231.482   JLINK_ReadMemEx(0x20005ECC, 0x0004 Bytes, ..., Flags = 0x02000000)
T31A8 2294:231.504    -- Read from C cache (4 bytes @ 0x20005ECC)
T31A8 2294:231.524   Data:  1D 40 00 08
T31A8 2294:231.544 - 0.070ms returns 0x04
T31A8 2294:231.564   JLINK_ReadMemEx(0x20005EC8, 0x0004 Bytes, ..., Flags = 0x02000000)
T31A8 2294:231.585    -- Read from C cache (4 bytes @ 0x20005EC8)
T31A8 2294:231.606   Data:  90 6C 00 08
T31A8 2294:231.626 - 0.070ms returns 0x04
T31A8 2294:231.644   JLINK_ReadMemEx(0x20005ECC, 0x0004 Bytes, ..., Flags = 0x02000000)
T31A8 2294:231.665    -- Read from C cache (4 bytes @ 0x20005ECC)
T31A8 2294:231.685   Data:  1D 40 00 08
T31A8 2294:231.706 - 0.069ms returns 0x04
T31A8 2294:231.731   JLINK_ReadMemEx(0x20005EB4, 0x0004 Bytes, ..., Flags = 0x02000000)
T31A8 2294:231.756    -- CPU_ReadMem(64 bytes @ 0x20005E80)
T31A8 2294:232.636    -- Updating C cache (64 bytes @ 0x20005E80)
T31A8 2294:232.671    -- Read from C cache (4 bytes @ 0x20005EB4)
T31A8 2294:232.693   Data:  00 00 00 00
T31A8 2294:232.714 - 0.991ms returns 0x04
T31A8 2294:232.740   JLINK_ReadMemEx(0x20005EB8, 0x0004 Bytes, ..., Flags = 0x02000000)
T31A8 2294:232.764    -- Read from C cache (4 bytes @ 0x20005EB8)
T31A8 2294:232.785   Data:  10 00 00 00
T31A8 2294:232.805 - 0.074ms returns 0x04
T31A8 2294:239.258   JLINK_ReadMemEx(0x0800107C, 0x003C Bytes, ..., Flags = 0x02000000)
T31A8 2294:239.314    -- CPU_ReadMem(128 bytes @ 0x08001040)
T31A8 2294:240.601    -- Updating C cache (128 bytes @ 0x08001040)
T31A8 2294:240.648    -- Read from C cache (60 bytes @ 0x0800107C)
T31A8 2294:240.672   Data:  04 48 00 F0 A5 FC F9 E7 40 38 02 40 40 42 0F 00 ...
T31A8 2294:240.692 - 1.442ms returns 0x3C
T31A8 2294:240.716   JLINK_ReadMemEx(0x0800107C, 0x0002 Bytes, ..., Flags = 0x02000000)
T31A8 2294:240.739    -- Read from C cache (2 bytes @ 0x0800107C)
T31A8 2294:240.760   Data:  04 48
T31A8 2294:240.780 - 0.072ms returns 0x02
T31A8 2294:240.800   JLINK_ReadMemEx(0x0800107E, 0x0002 Bytes, ..., Flags = 0x02000000)
T31A8 2294:240.821    -- Read from C cache (2 bytes @ 0x0800107E)
T31A8 2294:240.841   Data:  00 F0
T31A8 2294:240.862 - 0.069ms returns 0x02
T31A8 2294:240.895   JLINK_ReadMemEx(0x0800107E, 0x0002 Bytes, ..., Flags = 0x02000000)
T31A8 2294:240.917    -- Read from C cache (2 bytes @ 0x0800107E)
T31A8 2294:240.938   Data:  00 F0
T31A8 2294:240.958 - 0.071ms returns 0x02
T31A8 2294:240.976   JLINK_ReadMemEx(0x08001080, 0x003C Bytes, ..., Flags = 0x02000000)
T31A8 2294:240.997    -- Read from C cache (60 bytes @ 0x08001080)
T31A8 2294:241.018   Data:  A5 FC F9 E7 40 38 02 40 40 42 0F 00 00 10 00 40 ...
T31A8 2294:241.038 - 0.069ms returns 0x3C
T31A8 2294:241.055   JLINK_ReadMemEx(0x08001080, 0x0002 Bytes, ..., Flags = 0x02000000)
T31A8 2294:241.076    -- Read from C cache (2 bytes @ 0x08001080)
T31A8 2294:241.096   Data:  A5 FC
T31A8 2294:241.116 - 0.069ms returns 0x02
T31A8 2294:241.148   JLINK_ReadMemEx(0x08001082, 0x0002 Bytes, ..., Flags = 0x02000000)
T31A8 2294:241.170    -- Read from C cache (2 bytes @ 0x08001082)
T31A8 2294:241.190   Data:  F9 E7
T31A8 2294:241.217 - 0.077ms returns 0x02
T31A8 2294:241.235   JLINK_ReadMemEx(0x08001084, 0x003C Bytes, ..., Flags = 0x02000000)
T31A8 2294:241.259    -- Read from C cache (60 bytes @ 0x08001084)
T31A8 2294:241.280   Data:  40 38 02 40 40 42 0F 00 00 10 00 40 6C 05 00 20 ...
T31A8 2294:241.300 - 0.072ms returns 0x3C
T31A8 2294:241.317   JLINK_ReadMemEx(0x08001084, 0x0002 Bytes, ..., Flags = 0x02000000)
T31A8 2294:241.338    -- Read from C cache (2 bytes @ 0x08001084)
T31A8 2294:241.358   Data:  40 38
T31A8 2294:241.378 - 0.069ms returns 0x02
T31A8 2312:911.250 JLINK_SetResetType(JLINKARM_CM3_RESET_TYPE_NORMAL)
T31A8 2312:911.290 - 0.048ms returns JLINKARM_CM3_RESET_TYPE_NORMAL
T31A8 2312:911.308 JLINK_Reset()
T31A8 2312:911.335    -- CPU_WriteMem(4 bytes @ 0xE000EDF0)
T31A8 2312:911.749    -- CPU_WriteMem(4 bytes @ 0xE000EDFC)
T31A8 2312:912.181   Reset: Halt core after reset via DEMCR.VC_CORERESET.
T31A8 2312:912.715   Reset: Reset device via AIRCR.SYSRESETREQ.
T31A8 2312:912.749    -- CPU_WriteMem(4 bytes @ 0xE000ED0C)
T31A8 2312:965.630    -- CPU_ReadMem(4 bytes @ 0xE000EDF0)
T31A8 2312:966.354    -- CPU_ReadMem(4 bytes @ 0xE000EDF0)
T31A8 2312:966.976    -- CPU_WriteMem(4 bytes @ 0xE000EDF0)
T31A8 2312:967.740    -- CPU_WriteMem(4 bytes @ 0xE000EDFC)
T31A8 2312:973.591    -- CPU_ReadMem(4 bytes @ 0xE000EDF0)
T31A8 2312:977.384    -- CPU_WriteMem(4 bytes @ 0xE0002000)
T31A8 2312:978.111    -- CPU_ReadMem(4 bytes @ 0xE000EDFC)
T31A8 2312:978.808    -- CPU_ReadMem(4 bytes @ 0xE0001000)
T31A8 2312:979.481 - 68.203ms
T31A8 2312:979.656 JLINK_ReadReg(R15 (PC))
T31A8 2312:979.684 - 0.036ms returns 0x0800025C
T31A8 2312:979.702 JLINK_ReadReg(XPSR)
T31A8 2312:979.718 - 0.022ms returns 0x01000000
